#  HZ   S   MA   R     50.0 
! Rohde & Schwarz ZVL 
! 
! 
! 
 4.000000000000000E8     7.951300664646726E-3   5.152819292167741E1   1.530944578178132E-1   4.722554442633903E1   1.532772492774899E-1   4.714868684741397E1   1.955661518028682E-2  -1.514604670487190E2  
 4.500000000000000E8     1.033626930527628E-2   5.081971946808007E1   1.527113332853341E-1  -3.677025501752205E1   1.527920752790067E-1  -3.663178323582388E1   1.583344128296308E-2   1.211510472901327E2  
 5.000000000000000E8     9.288390318049684E-3   4.559723468994296E1   1.524507777086128E-1  -1.206037870767409E2   1.524029576696964E-1  -1.204942072583469E2   1.201150551890447E-2  -1.135489930220896E2  
 5.500000000000000E8     1.200440954263892E-2   4.433839853646654E1   1.520833846253739E-1   1.553196370790073E2   1.521918063876130E-1   1.555248203070140E2   2.247286616266613E-2   1.525481228334548E2  
 6.000000000000000E8     9.996037306438341E-3   3.893481750127639E1   1.518746521741310E-1   7.142402085702364E1   1.519367577337906E-1   7.114857892013718E1   3.387572977047846E-3  -3.238790786870001E1  
 6.500000000000000E8     1.478712147264130E-2   3.711344225229076E1   1.515467504573067E-1  -1.294009913361472E1   1.515816719535664E-1  -1.266900147549626E1   2.298162112884258E-2   1.782874644932620E2  
 7.000000000000000E8     1.135218363748875E-2   3.848066467132090E1   1.513035502407105E-1  -9.686013999535172E1   1.513117950879192E-1  -9.672972448992763E1   9.529125510533551E-3   9.118553413372420E1  
 7.500000000000000E8     1.578182753676128E-2   2.838521101595585E1   1.510475001435703E-1   1.792665391124585E2   1.510305836739529E-1   1.791569231198484E2   1.780124882396065E-2  -1.592479413916511E2  
 8.000000000000000E8     1.327094130279360E-2   3.329453677991364E1   1.510051273615479E-1   9.513502532062985E1   1.509619015984398E-1   9.509103590630669E1   1.808524638485257E-2   1.220084287716414E2  
 8.500000000000000E8     1.675983712675545E-2   2.136350165425049E1   1.506612530529130E-1   1.134153058585352E1   1.505504136425858E-1   1.135735258544543E1   8.053381007000274E-3  -1.307026199236890E2  
 9.000000000000000E8     1.554804882741637E-2   2.843792842658004E1   1.503751804603585E-1  -7.301294476293272E1   1.502613570210028E-1  -7.254330761544289E1   2.343933005835783E-2   1.450711733238404E2  
 9.500000000000000E8     1.743305225215411E-2   1.553391776839467E1   1.501435390016652E-1  -1.565988518142197E2   1.500150264566954E-1  -1.567298117874292E2   3.440016161429446E-3   2.448356049615295E1  
 1.000000000000000E9     1.735547661450515E-2   2.057062993105330E1   1.498261842045410E-1   1.194899765765245E2   1.497321840992429E-1   1.192767608132196E2   2.291331493008293E-2  -1.797891671169721E2  
 1.050000000000000E9     1.817434895356294E-2   1.491226559873294E1   1.499298297911529E-1   3.552954544606342E1   1.497065763320648E-1   3.545024372472457E1   1.507729299726477E-2   1.045769162523458E2  
 1.100000000000000E9     1.982269895984629E-2   6.736491916693881   1.496798083707215E-1  -4.851553762397216E1   1.495060901829199E-1  -4.858134439594865E1   1.523244151061103E-2  -1.633398301654215E2  
 1.150000000000000E9     1.974082955599552E-2   9.532149914294433   1.493153241389589E-1  -1.327279458336065E2   1.492093611019075E-1  -1.326765114695322E2   2.433990326986892E-2   1.181546744097300E2  
 1.200000000000000E9     2.000456833569311E-2   6.489356988482276E-1   1.493090873021027E-1   1.435986603123254E2   1.491975882666994E-1   1.437909319446170E2   5.100405215682067E-3  -1.034113960527440E2  
 1.250000000000000E9     2.262009681284647E-2   2.044940853574879   1.489756158833535E-1   5.951471394265367E1   1.489361030303548E-1   5.951504271110856E1   2.699058257446440E-2   1.501220146817226E2  
 1.300000000000000E9     2.178597987600969E-2  -8.607682703760826E-1   1.486215747975755E-1  -2.425130749373957E1   1.486493498584623E-1  -2.421470917250666E1   1.222867397446889E-2   5.966629444346896E1  
 1.350000000000000E9     2.319034611738141E-2  -7.459766198207557   1.487390471652134E-1  -1.085913595413517E2   1.485895697910399E-1  -1.081381725007152E2   2.458831930690003E-2  -1.777928486684907E2  
 1.400000000000000E9     2.497502144889890E-2  -7.160945371922891   1.481271255822124E-1   1.676480895192901E2   1.480822350207166E-1   1.680546450458652E2   2.542309878589644E-2   9.254383547004760E1  
 1.450000000000000E9     2.494484468098731E-2  -1.457539486344159E1   1.478859435529434E-1   8.376263096210090E1   1.479635974603612E-1   8.363761678188338E1   1.432226163953171E-2  -1.415891725665205E2  
 1.500000000000000E9     2.654778194058078E-2  -1.376227527353660E1   1.480211360081448E-1  -3.043586918558004E-1   1.481012754159644E-1   6.149942051022765E-4   3.458705907675765E-2   1.233348305881903E2  
 1.550000000000000E9     2.563028876970849E-2  -1.947165743879031E1   1.478278656555741E-1  -8.393060130764539E1   1.476578006690144E-1  -8.424085576344540E1   8.579971224816525E-3  -1.271104731674633E1  
 1.600000000000000E9     2.715205645468209E-2  -2.628420109004039E1   1.472303290455288E-1  -1.680076285985181E2   1.470326163491739E-1  -1.682244613832110E2   3.581932600950715E-2   1.535771563062459E2  
 1.650000000000000E9     2.933054110256172E-2  -2.513331338130768E1   1.471142670878848E-1   1.078609639697838E2   1.470233451833236E-1   1.079432815873303E2   2.016104639186978E-2   5.568073260176502E1  
 1.700000000000000E9     2.557518126896771E-2  -2.431880640160667E1   1.471714714772497E-1   2.428964409346299E1   1.470405882705868E-1   2.420394671085108E1   2.907111895260505E-2  -1.730514067376883E2  
 1.750000000000000E9     2.537994691682269E-2  -3.404431115282658E1   1.470392243477200E-1  -6.007197529942031E1   1.468038615959238E-1  -6.002441134214109E1   3.535564658304337E-2   8.163061982052673E1  
 1.800000000000000E9     2.913298494920954E-2  -3.968287164493896E1   1.467697710542118E-1  -1.438492959204170E2   1.467256560511680E-1  -1.441434218321458E2   1.883942020658371E-2  -1.258462616012773E2  
 1.850000000000000E9     2.999664812988921E-2  -3.909220743891125E1   1.467150465699493E-1   1.321631876493088E2   1.468951066609132E-1   1.320809624619285E2   4.899295721317173E-2   1.181590976856568E2  
 1.900000000000000E9     2.724347851875579E-2  -4.613915453305695E1   1.472437647788822E-1   4.822175239925130E1   1.471459637493903E-1   4.830030458073853E1   1.907609058198079E-2  -2.262948199221248E1  
 1.950000000000000E9     2.965686451027918E-2  -4.941435978246454E1   1.466157169515223E-1  -3.576899781120958E1   1.461389687865602E-1  -3.576136661060573E1   4.500984812708280E-2   1.515839181088390E2  
 2.000000000000000E9     2.791783749147131E-2  -5.170603740284908E1   1.459358812545018E-1  -1.195977483071509E2   1.457218172816488E-1  -1.197791046645108E2   3.095539685569365E-2   4.200712831710713E1  
 2.050000000000000E9     2.843151796856950E-2  -5.680532975570481E1   1.457513153282217E-1   1.560273130698923E2   1.457732377199327E-1   1.560582284732443E2   3.735985555106459E-2  -1.721259794501374E2  
 2.100000000000000E9     2.865192539607276E-2  -5.814634361182733E1   1.456534357813885E-1   7.248560766118091E1   1.457725882831202E-1   7.240910046966289E1   4.731776058439071E-2   7.598822265944372E1  
 2.150000000000000E9     2.722724911936480E-2  -6.158849175837284E1   1.458501974430393E-1  -1.168725111181395E1   1.456445420397567E-1  -1.166831367828540E1   2.579328610672890E-2  -1.256383551470609E2  
 2.200000000000000E9     2.876506366674764E-2  -6.693098800250172E1   1.451224699825860E-1  -9.543893508670229E1   1.451326014758763E-1  -9.550107038539662E1   5.697625256050940E-2   1.094738896898509E2  
 2.250000000000000E9     2.633107433217035E-2  -6.736073617775833E1   1.451790837403204E-1  -1.791089115099264E2   1.453112230510622E-1  -1.793884448266451E2   2.085109891028795E-2  -3.630309540635567E1  
 2.300000000000000E9     2.723360941100564E-2  -7.513542351868971E1   1.449311067347202E-1   9.639459159130767E1   1.450676818888776E-1   9.637052321446063E1   5.980387422867229E-2   1.388674348993685E2  
 2.350000000000000E9     2.622958652903040E-2  -7.425143765267450E1   1.450302835704095E-1   1.271668744251791E1   1.450022858560863E-1   1.273288333046195E1   4.110167673212854E-2   2.085295348514397E1  
 2.400000000000000E9     2.442694127493244E-2  -8.074798089257590E1   1.448845342475605E-1  -7.144619031076228E1   1.447095393649621E-1  -7.115906794992705E1   5.092972714943945E-2   1.729682481836057E2  
 2.450000000000000E9     2.610999679638770E-2  -8.467752907383729E1   1.445321885093421E-1  -1.552350464280481E2   1.443085011279977E-1  -1.550128767174101E2   6.290917708323951E-2   5.925422723436044E1  
 2.500000000000000E9     2.369664133044381E-2  -8.250675742991655E1   1.448457117980385E-1   1.205647008775044E2   1.447670583071798E-1   1.207282517990920E2   3.986070432532093E-2  -1.272452601682642E2  
 2.550000000000000E9     2.304481024920992E-2  -9.132875840722983E1   1.443550195675850E-1   3.674488932982082E1   1.436568752329434E-1   3.701230330932498E1   7.767888777412223E-2   9.809321961635848E1  
 2.600000000000000E9     2.295775299964363E-2  -8.776262525638508E1   1.441624754065220E-1  -4.694250229644520E1   1.441143849410877E-1  -4.708526610084637E1   3.569796044226284E-2  -4.955776308971254E1  
 2.650000000000000E9     2.190613991419723E-2  -9.704534691949715E1   1.438803975617917E-1  -1.311598056036817E2   1.437708394499511E-1  -1.311760855102070E2   7.268668515189172E-2   1.306167965959338E2  
 2.700000000000000E9     2.228797900941597E-2  -9.393356285009853E1   1.440563345806431E-1   1.448149730184491E2   1.442504425288103E-1   1.452460679643677E2   5.426009864573039E-2   9.807173025391771  
 2.750000000000000E9     2.034933797663489E-2  -9.680703771293300E1   1.438504615811335E-1   6.099264671593441E1   1.437954260749208E-1   6.069763591689221E1   6.119067664537520E-2   1.696345420574386E2  
 2.800000000000000E9     2.053854196413143E-2  -9.825023778509886E1   1.432600230323264E-1  -2.277219091732010E1   1.434147505179752E-1  -2.288975289745348E1   7.850119027522484E-2   4.922774996421186E1  
 2.850000000000000E9     2.083254927346415E-2  -9.586456296450146E1   1.433229348780137E-1  -1.069679013749799E2   1.438577826404076E-1  -1.070684099863893E2   4.533255633854496E-2  -1.312556458976082E2  
 2.900000000000000E9     1.937132976675863E-2  -1.017739795306114E2   1.430873588147827E-1   1.687698150187924E2   1.433487071403016E-1   1.689095468333759E2   8.196345815384087E-2   8.536545335430076E1  
 2.950000000000000E9     2.089030033421271E-2  -1.000169462200177E2   1.433821445030795E-1   8.497298975796147E1   1.435604209661998E-1   8.527150711895690E1   4.179281093116316E-2  -6.388845380890781E1  
 3.000000000000000E9     1.866332359978460E-2  -1.031941631326153E2   1.427784444122012E-1   1.210369433090058   1.429430357151671E-1   1.178032032802880   8.227032259748544E-2   1.196769871230212E2  
 3.050000000000000E9     2.146785289056978E-2  -1.036058250191126E2   1.427481597878511E-1  -8.287500906021813E1   1.432592443503455E-1  -8.303052685071809E1   6.193918345852698E-2  -7.174071949811053  
 3.100000000000000E9     2.008115853494350E-2  -1.016203089101566E2   1.430753147941844E-1  -1.672314157841003E2   1.431498228511643E-1  -1.669977305755558E2   7.121044583927844E-2   1.566270445507746E2  
 3.150000000000000E9     2.085769075607373E-2  -1.043549272989613E2   1.426480710519095E-1   1.092010514160122E2   1.429069287959353E-1   1.094014330315951E2   8.462290201493261E-2   3.241361825454413E1  
 3.200000000000000E9     2.213929700461588E-2  -1.038001590593524E2   1.431099904038699E-1   2.492031926551554E1   1.430019738244830E-1   2.531709368352154E1   5.290791439177349E-2  -1.488524488900884E2  
 3.250000000000000E9     2.157350567839819E-2  -1.055901346846706E2   1.423697683729620E-1  -5.870025057709257E1   1.426762454232672E-1  -5.890658115020172E1   9.480830841087851E-2   6.791929452258994E1  
 3.300000000000000E9     2.411203533264635E-2  -1.075175329852138E2   1.428108656520100E-1  -1.429606331829067E2   1.428928764209394E-1  -1.425395986613716E2   5.919550826983486E-2  -8.000952993841307E1  
 3.350000000000000E9     2.299698479718367E-2  -1.066178522661685E2   1.427013101960331E-1   1.333951358074448E2   1.426291626310367E-1   1.333738315300070E2   8.654136953387004E-2   1.082677125226492E2  
 3.400000000000000E9     2.553270303672659E-2  -1.126592515509556E2   1.425401641429764E-1   4.923454271429759E1   1.425615717337221E-1   4.905989967852620E1   6.440659470657877E-2  -2.840044701996094E1  
 3.450000000000000E9     2.546264001678928E-2  -1.116075232046185E2   1.428460217335524E-1  -3.484581056287794E1   1.427656823026048E-1  -3.454140049570245E1   7.626076819985440E-2   1.470991691537648E2  
 3.500000000000000E9     2.644290199389913E-2  -1.170556125305759E2   1.429537405139355E-1  -1.188094802427496E2   1.431460095695933E-1  -1.186737476509896E2   7.867175103663206E-2   1.494660507909859E1  
 3.550000000000000E9     2.748292503618201E-2  -1.160259400465782E2   1.430247559971900E-1   1.571671678281001E2   1.426346500496138E-1   1.575053122404960E2   6.982197729212744E-2  -1.695279809372675E2  
 3.600000000000000E9     2.726912698640594E-2  -1.204886740033023E2   1.425139722499229E-1   7.332346554572976E1   1.418417976335454E-1   7.342677701463563E1   9.674101171281460E-2   5.649263813495970E1  
 3.650000000000000E9     2.931125994324631E-2  -1.238653769222448E2   1.423872636883402E-1  -1.090136808582395E1   1.420530001109011E-1  -1.052796209915119E1   5.410167677941004E-2  -1.117042684245151E2  
 3.700000000000000E9     2.926194175748615E-2  -1.242409205614500E2   1.421788452805450E-1  -9.463294625631733E1   1.417400174831059E-1  -9.495895077807847E1   9.837959249336462E-2   8.864131276704846E1  
 3.750000000000000E9     2.956545017421437E-2  -1.292794038369174E2   1.420327111085143E-1  -1.786077684880170E2   1.419799056997142E-1  -1.789452302198745E2   6.800094954005595E-2  -4.881597586951646E1  
 3.800000000000000E9     2.980701018724629E-2  -1.311090548525881E2   1.417861825481451E-1   9.718837161368923E1   1.420784416364357E-1   9.689530058412053E1   9.005537404843840E-2   1.301046160153144E2  
 3.850000000000000E9     3.026320293123313E-2  -1.374295308226517E2   1.418074502146051E-1   1.316865676552902E1   1.422223851619720E-1   1.321391493458324E1   8.255131358826304E-2  -1.113884809401740  
 3.900000000000000E9     3.037283996058431E-2  -1.357683156484884E2   1.422428531741457E-1  -7.088712686658073E1   1.429804542539727E-1  -7.088796714216130E1   7.563158842467466E-2   1.735765232750678E2  
 3.950000000000000E9     2.794543484938808E-2  -1.412878499411186E2   1.424851561134299E-1  -1.547131910518169E2   1.422707904373328E-1  -1.546682492104755E2   9.585738021184481E-2   4.139933219464231E1  
 4.000000000000000E9     2.876275144117515E-2  -1.450346538017278E2   1.425974023222737E-1   1.217038872331928E2   1.426037951092134E-1   1.209936094838609E2   5.819973018050201E-2  -1.339361564418612E2  
 4.050000000000000E9     2.880958085767631E-2  -1.466760135063084E2   1.420013066547272E-1   3.704786418032052E1   1.420013993034476E-1   3.655068236411609E1   1.033733303035920E-1   7.567315488908965E1  
 4.100000000000000E9     2.643443582898467E-2  -1.490771471141407E2   1.423411215655815E-1  -4.701983398348769E1   1.432332863258284E-1  -4.724027291795610E1   6.342561172406640E-2  -7.067602208067497E1  
 4.150000000000000E9     2.641408654021724E-2  -1.517972524994068E2   1.423828748414844E-1  -1.313693796916933E2   1.432695112205254E-1  -1.316016336401657E2   9.547989123958578E-2   1.134451722030384E2  
 4.200000000000000E9     2.335476535048225E-2  -1.555756452285893E2   1.430323591739194E-1   1.445529942689373E2   1.437045036754779E-1   1.447669662233045E2   7.544773670531757E-2  -1.670441999265103E1  
 4.250000000000000E9     2.428221777318187E-2  -1.558277342656654E2   1.430529155175046E-1   6.060233486106222E1   1.435037500420817E-1   6.054301580592105E1   7.961427081472602E-2   1.511932509305512E2  
 4.300000000000000E9     2.032310708602635E-2  -1.566563622593258E2   1.431548754264490E-1  -2.302831806050360E1   1.433480632416981E-1  -2.320872622809023E1   9.551990330538161E-2   2.304016716522007E1  
 4.350000000000000E9     1.851559342041756E-2  -1.618062472531674E2   1.435405907081469E-1  -1.075510689127729E2   1.438340790281315E-1  -1.077985362115115E2   6.367535443136586E-2  -1.599964966516205E2  
 4.400000000000000E9     1.654774645925810E-2  -1.588963512755216E2   1.432635402228085E-1   1.688120803838546E2   1.425547613838305E-1   1.684733855367470E2   1.084918747077801E-1   5.757138193847371E1  
