#  HZ   S   RI   R     50.0 
! Rohde & Schwarz ZVL 
! 
! 
! 
 4.000000000000000E8    -8.893354097381234E-4   6.792990212092582E-4  -4.023651670722832E-2   3.006886243820190E-1  -3.345243193745081E-2   3.021953105926514E-1  -5.530345719307661E-3  -1.514147531647184E-2  
 4.500000000000000E8     2.632976975291967E-3  -2.712865790286432E-3   2.649498981682087E-1  -1.468815058469772E-1   2.693877228125435E-1  -1.405460238456726E-1  -1.738609629683197E-3   4.161990783274724E-3  
 5.000000000000000E8     7.792949909344316E-4  -1.778182377048194E-3  -2.598534137897198E-1  -1.538826823234558E-1  -2.607933824805620E-1  -1.544120758771896E-1  -1.156432926654816E-2   7.269872770834714E-3  
 5.500000000000000E8     3.908309154212475E-3   1.054660176466295E-3   2.331770321844331E-2   3.009919822216034E-1   1.327772069178637E-2   3.020575940608978E-1  -1.223074644804001E-2  -9.682403877468685E-3  
 6.000000000000000E8    -9.755442151799798E-4  -1.818414339382673E-3   2.476235801375238E-1  -1.725868284702301E-1   2.470345926434854E-1  -1.727037727832794E-1   5.288430023938417E-3   4.294933297849755E-3  
 6.500000000000000E8    -1.621554023586214E-3  -5.138138567689966E-3  -2.820734592880297E-1  -1.040528938174248E-1  -2.790474665917241E-1  -1.135157570242882E-1  -1.909534819424152E-2   3.685248552783691E-3  
 7.000000000000000E8    -2.535853767767549E-3  -1.741244143682632E-3   5.636145803083832E-2   2.947284281253815E-1   6.131849403551160E-2   2.935577332973480E-1  -1.251016650348902E-2  -6.435301135318147E-3  
 7.500000000000000E8    -8.531523635610938E-4  -3.687436947469509E-3   2.233678938248312E-1  -1.985325217247009E-1   2.177235125005251E-1  -2.057836651802063E-1   1.539101591333747E-3   5.723155859333340E-3  
 8.000000000000000E8     2.023094100877643E-3  -2.643800208799803E-3  -2.908726220272556E-1  -6.819065660238266E-2  -2.916821066924104E-1  -6.795252859592438E-2  -2.027672342956066E-2   4.983842774084053E-3  
 8.500000000000000E8    -1.429204246960580E-3  -4.812143892901616E-3   1.006596914770586E-1   2.811423242092133E-1   1.081967291462920E-1   2.792820632457733E-1  -1.227275747805834E-2  -5.638909298578143E-3  
 9.000000000000000E8     2.269464777782559E-3  -2.152946062725331E-3   1.800326095798339E-1  -2.375280410051346E-1   1.797022901004395E-1  -2.386244535446167E-1   2.793692750856280E-3   1.184865412032726E-2  
 9.500000000000000E8     4.125259874854237E-4  -1.282266547794172E-3  -2.962081679913773E-1  -2.227394841611385E-2  -2.973686461511366E-1  -2.137770690023899E-2  -1.957492716610432E-2   7.448441921823921E-3  
 1.000000000000000E9    -2.588407136499882E-3   1.695141576472987E-4   1.378081516001670E-1   2.622042000293732E-1   1.439882496612141E-1   2.602363526821137E-1  -4.081479273736477E-3  -9.381760647447791E-3  
 1.050000000000000E9    -1.240696664899588E-2   7.585874185309752E-3   1.431474512426268E-1  -2.596257627010346E-1   1.546340329091729E-1  -2.542966008186340E-1  -5.498347338289022E-3   4.963005373897055E-3  
 1.100000000000000E9    -3.666498465463519E-3  -1.730512816663807E-2  -2.950907438759787E-1   2.096406556665897E-2  -2.963999200937518E-1   1.381984725594521E-2  -4.744183272123337E-3   1.471280078043746E-2  
 1.150000000000000E9    -1.300444733351469E-2   1.264985288943125E-2   1.744663754690143E-1   2.365539073944092E-1   1.729491403066189E-1   2.419146895408630E-1   8.820642717182636E-3   7.262878673628579E-4  
 1.200000000000000E9    -1.020748633891344E-2  -1.494500457129925E-2   1.090207796954792E-1  -2.741479575634003E-1   1.024951874556035E-1  -2.780675292015076E-1  -5.542598664760590E-3   5.956252397061049E-3  
 1.250000000000000E9    -3.634610620792955E-4  -3.241727993658783E-3  -2.888036873892133E-1   5.889779701828957E-2  -2.905283783203966E-1   5.300277471542358E-2  -2.799953334033489E-2   1.387238039397649E-2  
 1.300000000000000E9    -1.424288377165794E-2  -1.275364594806684E-3   2.035568590560920E-1   2.101988196372986E-1   2.066000694297317E-1   2.115880548954010E-1   1.221776939928532E-2   1.975694484107150E-2  
 1.350000000000000E9    -3.839536570012569E-3  -1.058670259721524E-2   6.304026354113118E-2  -2.869141995906830E-1   6.265022692647865E-2  -2.876354753971100E-1   7.857289165258408E-3   1.374176934861653E-2  
 1.400000000000000E9    -4.934861324727535E-3  -5.560993823675787E-3  -2.741110998274632E-1   1.037128493189812E-1  -2.744115690558268E-1   1.054409518837929E-1  -1.291556470096111E-2  -1.580475288315503E-2  
 1.450000000000000E9    -6.663461215794087E-3  -7.480690560872450E-3   2.328812031412588E-1   1.783872693777084E-1   2.300649356343532E-1   1.819595843553543E-1  -4.601096268743277E-3   2.124026048415352E-2  
 1.500000000000000E9    -1.341408770531416E-2  -9.319037208101267E-4   2.710083846868635E-2  -2.913136780261993E-1   1.922067754482141E-2  -2.937171459197998E-1  -2.019652910530567E-2   1.616246397414129E-2  
 1.550000000000000E9    -1.336585264652968E-2  -1.344829422827732E-2  -2.571555862320104E-1   1.410008221864700E-1  -2.526581699476211E-1   1.491191089153290E-1  -2.827402390539646E-2  -5.731925273800560E-4  
 1.600000000000000E9    -5.634074099361897E-3   1.344997214921170E-2   2.542453954921676E-1   1.414424031972885E-1   2.574787480130751E-1   1.388907730579376E-1   1.686390489339829E-2   1.809216199464545E-2  
 1.650000000000000E9    -4.203898832201958E-3   9.798872444299488E-4  -1.437746081195740E-2  -2.910203933715820E-1  -2.459765414850434E-2  -2.918060123920441E-1  -2.253905683755875E-2   2.308984221608110E-2  
 1.700000000000000E9     1.632400555536151E-3   6.837176313515808E-3  -2.362342081310434E-1   1.719309091567993E-1  -2.268104797087076E-1   1.840062439441681E-1   9.057504939846695E-4   9.950907691369676E-4  
 1.750000000000000E9     1.170755457133055E-2  -2.234440220915979E-3   2.711208649258925E-1   1.020763665437698E-1   2.763327695038742E-1   9.407514333724976E-2   1.777506619691849E-2   2.502347407991903E-2  
 1.800000000000000E9    -4.442208912223578E-3   1.512076452063335E-3  -5.966928096387713E-2  -2.838428318500519E-1  -6.374114136439374E-2  -2.823075056076050E-1  -1.950641162693501E-2   1.825676323507563E-2  
 1.850000000000000E9    -1.355681568384171E-2   5.876859883007951E-3  -2.013507330595730E-1   2.110110372304916E-1  -2.028469761399678E-1   2.096165120601654E-1  -9.085204452276230E-3  -9.156754630597329E-3  
 1.900000000000000E9    -2.530858386307955E-3  -4.707909798894294E-3   2.839508639816890E-1   6.342927366495132E-2   2.846469417829656E-1   6.109339371323586E-2   3.482059016823769E-2   2.361937963233943E-2  
 1.950000000000000E9     6.127110682427883E-3   4.663894983190075E-3  -1.063535241734064E-1  -2.703077197074890E-1  -1.095028441574515E-1  -2.691836655139923E-1  -1.975769549608231E-2   2.897154021667703E-2  
 2.000000000000000E9     3.569630207493901E-3   8.285414856503182E-3  -1.706857804807071E-1   2.346558272838593E-1  -1.716776232492784E-1   2.344564497470856E-1  -2.078939927741885E-3  -2.542749137688235E-2  
 2.050000000000000E9     1.569074811413884E-3   1.769214554847168E-2   2.886606277825158E-1   2.312390692532063E-2   2.898817402837867E-1   1.918568275868893E-2   3.315255045890808E-2   1.484244800770133E-2  
 2.100000000000000E9    -1.011163555085659E-2   1.412021008211510E-2  -1.428402974737606E-1  -2.513292133808136E-1  -1.436661555661245E-1  -2.524250447750092E-1  -2.866742946207523E-2   3.061749211647215E-2  
 2.150000000000000E9    -3.275135299190879E-3  -1.439899045476605E-4  -1.316015486873125E-1   2.584266364574432E-1  -1.206792083476183E-1   2.632699310779572E-1  -9.571664966642857E-3  -1.841009920442205E-2  
 2.200000000000000E9    -9.922116063535214E-3   1.574382120477775E-2   2.872716450803265E-1  -1.634858921170235E-2   2.874756379152760E-1  -2.502917498350143E-2   2.619550563395023E-2   1.888147299578184E-2  
 2.250000000000000E9    -8.285740390419960E-3   1.655175068814569E-2  -1.764084966247040E-1  -2.287050187587738E-1  -1.749306471676703E-1  -2.300254404544830E-1  -3.474223613739014E-2   3.399347921416891E-2  
 2.300000000000000E9    -3.193662269040942E-3   1.369697974975623E-2  -9.528411351276132E-2   2.723517715930939E-1  -9.947616710192891E-2   2.714163362979889E-1  -5.622010678052902E-3  -3.234300824227773E-2  
 2.350000000000000E9    -1.039860118180513E-2   1.538167015575084E-2   2.812642049289019E-1  -6.240335479378700E-2   2.794093774886859E-1  -7.003719359636307E-2   3.669152781367302E-2   1.003945731244462E-2  
 2.400000000000000E9    -1.890144427306950E-3   1.625506047448080E-2  -2.062247552395631E-1  -2.004439681768417E-1  -2.123285191212088E-1  -1.954788267612457E-1  -2.591885253787041E-2   4.216475805398304E-2  
 2.450000000000000E9     1.689636381343007E-3   1.348997577103080E-2  -4.818022339347694E-2   2.841773331165314E-1  -5.813903991083529E-2   2.830440104007721E-1   2.855257131159306E-3  -2.981525121220962E-2  
 2.500000000000000E9    -6.615351885557175E-3   1.313257206780979E-2   2.661178869744440E-1  -1.077873632311821E-1   2.689363246285165E-1  -1.039532348513603E-1   4.282433539628983E-2   8.593743298019358E-3  
 2.550000000000000E9     6.392032839357853E-3   1.781869504743701E-2  -2.344255401066487E-1  -1.654953807592392E-1  -2.304548177529501E-1  -1.704251170158386E-1  -4.083163291215897E-2   3.827687994101983E-2  
 2.600000000000000E9     1.221469976007938E-2   1.075162798182176E-2  -1.016352009977322E-2   2.871689796447754E-1  -1.529918660907461E-2   2.871281504631043E-1  -1.674553938210011E-2  -2.209173951984813E-2  
 2.650000000000000E9     8.770961314439774E-3   1.220805510022721E-2   2.480295893453182E-1  -1.452389061450958E-1   2.493426558811640E-1  -1.428556889295578E-1   3.696342185139656E-2   1.876424647359403E-2  
 2.700000000000000E9     7.258284837007523E-3   7.180189582870571E-3  -2.571276645303199E-1  -1.279190927743912E-1  -2.570785211257818E-1  -1.282571405172348E-1  -3.960386663675308E-2   4.796532867677327E-2  
 2.750000000000000E9     1.747442968189716E-2   1.799351815575657E-2   2.052791261526371E-2   2.858782112598419E-1   3.368760309995435E-2   2.852899432182312E-1  -1.930933073163033E-2  -4.171406347083684E-2  
 2.800000000000000E9     1.022956427186728E-2   1.618024361706347E-2   2.269161915469215E-1  -1.739872545003891E-1   2.282977116741371E-1  -1.742834597826004E-1   4.170437902212143E-2   3.151923050761897E-2  
 2.850000000000000E9    -2.016440033912659E-3   1.378896731434133E-2  -2.681255353461192E-1  -9.618011862039566E-2  -2.695922124539938E-1  -9.568282216787338E-2  -2.678542956709862E-2   6.366185117116449E-2  
 2.900000000000000E9     1.829517073929310E-3   2.461619903683133E-2   7.265828077537946E-2   2.767691612243652E-1   7.178959121464923E-2   2.776217758655548E-1  -2.715796418488026E-2  -4.458093861256478E-2  
 2.950000000000000E9     1.675924099981785E-2   2.331260268741693E-2   1.943283081745966E-1  -2.087851166725159E-1   1.965127888161993E-1  -2.077472805976868E-1   5.508271977305412E-2   2.855199173649132E-2  
 3.000000000000000E9     2.089215628802776E-2   1.393466971716106E-2  -2.791639862786830E-1  -5.762537568807602E-2  -2.824589130706258E-1  -4.673484712839127E-2  -3.737179189920425E-2   5.646308302785799E-2  
 3.050000000000000E9     1.494486350566149E-2   2.972530186361300E-2   1.063691360722329E-1   2.652933299541473E-1   1.077496892669286E-1   2.646953463554382E-1  -1.578387990593910E-2  -4.195637683831087E-2  
 3.100000000000000E9     1.439740601927042E-2   2.076424554092109E-2   1.615208071470229E-1  -2.360073029994965E-1   1.658995625817313E-1  -2.343805730342865E-1   5.735291168093681E-2   1.778329699290313E-2  
 3.150000000000000E9     2.003625966608524E-2   1.824847972005107E-2  -2.850188667201871E-1  -1.131410244852305E-2  -2.853896512998025E-1  -1.363270450383425E-2  -4.758402332663536E-2   5.985807335148528E-2  
 3.200000000000000E9     1.913887448608875E-2   2.366097457196655E-2   1.458343393739433E-1   2.462087273597717E-1   1.494563478356984E-1   2.450368404388428E-1  -4.058486595749855E-2  -4.110142194864403E-2  
 3.250000000000000E9     2.297775633633137E-2   2.770152957449856E-2   1.215000369813328E-1  -2.576644718647003E-1   1.307630285131890E-1  -2.544824779033661E-1   5.448034033179283E-2   2.771869564261154E-2  
 3.300000000000000E9     3.122830204665661E-2   8.429304296861138E-3  -2.827152555981043E-1   3.987181186676025E-2  -2.844132444171368E-1   2.908184006810188E-2  -2.792401425540447E-2   6.791470748813579E-2  
 3.350000000000000E9     3.587574139237404E-2   1.338850301980369E-2   1.810492116576227E-1   2.212560772895813E-1   1.796864397456599E-1   2.223365753889084E-1  -3.155192360281944E-2  -5.193888914942275E-2  
 3.400000000000000E9     3.254129365086556E-2   1.154472036679342E-2   9.098506936571857E-2  -2.710847556591034E-1   9.149435231532002E-2  -2.708837985992432E-1   5.660871788859367E-2   2.083970159164559E-2  
 3.450000000000000E9     4.260018095374107E-2   1.085845364228239E-2  -2.778307970865983E-1   6.792058050632477E-2  -2.791435353262196E-1   6.398981064558029E-2  -3.869067877531052E-2   5.770763313801195E-2  
 3.500000000000000E9     2.685346826910973E-2   1.272103239981653E-2   2.123834126734004E-1   1.907792240381241E-1   2.075732868261156E-1   1.982573866844177E-1  -3.953959047794342E-2  -3.526202968792492E-2  
 3.550000000000000E9     2.923004515469074E-2   1.366444598013793E-2   5.183350474223972E-2  -2.801413834095001E-1   5.019810732711116E-2  -2.814355790615082E-1   7.510818541049957E-2   1.046822937527908E-3  
 3.600000000000000E9     3.235509991645813E-2   1.120683851821330E-2  -2.622164785662785E-1   1.134034171700478E-1  -2.627855729057944E-1   1.131455600261688E-1  -3.376723080873489E-2   6.916171952965187E-2  
 3.650000000000000E9     4.269668832421303E-2   1.466478525753511E-2   2.357627696158282E-1   1.616884469985962E-1   2.365682242232941E-1   1.600832045078278E-1  -4.644756391644478E-2  -2.408021455745649E-2  
 3.700000000000000E9     3.865393251180649E-2   8.301336989858287E-4   5.217224146363548E-3  -2.853063046932221E-1   4.211314763249023E-3  -2.855518758296967E-1   7.692933082580566E-2  -9.317514750895683E-3  
 3.750000000000000E9     3.293800726532936E-2   6.081530997666338E-3  -2.440681410454711E-1   1.475651860237122E-1  -2.429029116861370E-1   1.464689075946808E-1  -3.514844924211502E-2   7.796083345176788E-2  
 3.800000000000000E9     4.145409539341927E-2  -1.735447246633222E-3   2.586924238829624E-1   1.204336509108543E-1   2.591829299155763E-1   1.202331334352493E-1  -5.003862828016281E-2  -3.724137802469966E-2  
 3.850000000000000E9     4.168355092406273E-2  -6.625177176969777E-3  -4.256746271137708E-2  -2.821296155452728E-1  -3.027326167140384E-2  -2.846130430698395E-1   7.588675618171692E-2  -1.652695157629071E-3  
 3.900000000000000E9     4.845791310071945E-2  -1.211507386782452E-2  -2.164863506271525E-1   1.865512877702713E-1  -2.211066034936250E-1   1.805460900068283E-1  -2.200558222830296E-2   8.159133152108149E-2  
 3.950000000000000E9     4.339758306741715E-2  -2.536599404644720E-3   2.709184799672934E-1   9.154543280601502E-2   2.733097502518159E-1   8.204533904790878E-2  -6.842860579490662E-2  -4.162422374690363E-2  
 4.000000000000000E9     4.541385918855667E-2  -8.699445893504066E-3  -7.577427980185757E-2  -2.755717635154724E-1  -7.811068687001463E-2  -2.751191556453705E-1   7.203248143196106E-2  -7.030930940170854E-3  
 4.050000000000000E9     5.005415156483650E-2  -1.668251295226471E-2  -1.832421605099249E-1   2.172812819480896E-1  -1.853415903956798E-1   2.166669219732285E-1  -3.325648978352547E-2   9.681182351568769E-2  
 4.100000000000000E9     4.615145176649094E-2  -1.578866754262462E-2   2.832061352544153E-1   3.747235238552094E-2   2.828704861465897E-1   4.183837026357651E-2  -5.645292997360230E-2  -3.722761782819753E-2  
 4.150000000000000E9     4.638919979333878E-2  -2.828017703084699E-2  -1.221816645436199E-1  -2.579008638858795E-1  -1.227551533525478E-1  -2.586811780929565E-1   6.663829833269119E-2  -1.804973464170592E-2  
 4.200000000000000E9     5.233418941497803E-2  -2.756931435460079E-2  -1.545377931822574E-1   2.401741445064545E-1  -1.598837118344628E-1   2.364389002323151E-1  -1.251112669706345E-3   9.884241013983446E-2  
 4.250000000000000E9     5.109431222081184E-2  -1.924953596880937E-2   2.859550601988705E-1   4.634738899767399E-3   2.865527001028660E-1  -4.155267961323261E-3  -8.145090937614441E-2  -3.145790158717806E-2  
 4.300000000000000E9     4.715744033455849E-2  -3.722490581348596E-2  -1.564353197099387E-1  -2.386684119701386E-1  -1.558486050214837E-1  -2.394169718027115E-1   7.214304804801941E-2  -2.600828692956844E-2  
 4.350000000000000E9     3.916958719491959E-2  -4.129892276161852E-2  -1.137706257200232E-1   2.621394991874695E-1  -1.217239076669340E-1   2.594411075115204E-1   6.680859369225800E-4   8.563809547226209E-2  
 4.400000000000000E9     4.486272856593132E-2  -3.814010286130361E-2   2.823005193887282E-1  -4.064632207155228E-2   2.821313082449920E-1  -4.468976706266403E-2  -8.736334741115570E-2  -2.475945051970254E-2  
