#  HZ   S   RI   R     50.0 
! Rohde & Schwarz ZVL 
! 
! 
! 
 4.000000000000000E8    -5.841589532792568E-3  -8.663575115351253E-3   1.543293328084376E-2   1.546775996685028E-1   1.438859789039112E-2   1.557209789752960E-1   8.194554247893393E-4   4.643837164779449E-3  
 4.500000000000000E8     1.544706407003105E-3   1.224918213587188E-3   1.172548554704480E-1  -1.015886887907982E-1   1.181895965677401E-1  -1.004416197538376E-1   2.404480474069715E-3   1.221525373078015E-4  
 5.000000000000000E8    -1.350369770079851E-2   1.010566043962630E-2  -1.503734388993269E-1  -3.754465654492378E-2  -1.480139413680105E-1  -4.216224327683449E-2   2.054425422102213E-3   2.032246376172589E-3  
 5.500000000000000E8    -1.197842601686716E-2  -8.058900294523585E-3   5.148568379842907E-2   1.462460458278656E-1   5.194157627663509E-2   1.448621600866318E-1   4.675647243857384E-3  -3.957878410165393E-4  
 6.000000000000000E8     6.632115226238966E-3   1.260525367450348E-3   8.990035769174466E-2  -1.247961223125458E-1   9.235297818692280E-2  -1.233448907732964E-1  -2.332616131752729E-3  -2.609893780251756E-3  
 6.500000000000000E8    -1.245563570410013E-2   5.894228188907088E-3  -1.538266014926265E-1  -4.287751857191324E-3  -1.529745914008321E-1  -9.756552986800671E-3   5.689386744052172E-4   1.851429154571171E-3  
 7.000000000000000E8    -1.241217833012343E-2   3.822025318632164E-4   8.470544909308925E-2   1.282700449228287E-1   8.362142788654844E-2   1.276457905769348E-1   2.381495898589492E-3   2.051781420074193E-3  
 7.500000000000000E8     1.728445757180452E-3   5.186661675839259E-3   5.942877793503659E-2  -1.414365470409393E-1   5.809430845040470E-2  -1.402254402637482E-1  -1.021509015117772E-4  -1.419816482197741E-3  
 8.000000000000000E8    -1.996806263923645E-2   1.001891414990322E-2  -1.500842744465616E-1   3.060961142182350E-2  -1.497905984456480E-1   3.401549905538559E-2   3.841475117951632E-3   2.058855652344821E-3  
 8.500000000000000E8    -1.559667754918337E-2   7.205857605423740E-5   1.083729932579561E-1   1.075002998113632E-1   1.086364142863822E-1   1.075384095311165E-1  -1.177736674435437E-3  -1.276898496144449E-4  
 9.000000000000000E8     2.425781451165676E-3   1.088069507853309E-2   2.595372363870659E-2  -1.499895006418228E-1   3.040342170729100E-2  -1.492944210767746E-1   4.279590677469969E-3  -8.799199890824753E-4  
 9.500000000000000E8    -1.904138736426830E-2   4.417408910289013E-3  -1.395458798077851E-1   6.082514673471451E-2  -1.382223381646593E-1   6.265265494585037E-2   1.167024020105600E-3   1.027039536332216E-3  
 1.000000000000000E9     4.437314812093973E-3  -9.893844661828142E-3   1.518515470855203E-1  -1.024147961288691E-3   1.512499601304922E-1  -3.667466575279832E-3   1.094613131135702E-2  -7.983528745575421E-3  
 1.050000000000000E9    -8.387804031372070E-3   5.445040984932047E-3  -6.549414826334748E-3  -1.521192640066147E-1  -5.369992062660090E-3  -1.518374383449554E-1  -3.348703903611749E-4  -3.802467775656244E-3  
 1.100000000000000E9    -2.702885121107101E-2   8.569580045216112E-3  -1.205978709800984E-1   9.126479923725128E-2  -1.197684546331011E-1   9.201945364475250E-2  -8.643800392746925E-3  -1.216350023482171E-2  
 1.150000000000000E9    -8.196036651497707E-5   4.237667322224079E-3   1.441609850897509E-1   4.565908387303352E-2   1.421407607016309E-1   5.069091543555260E-2  -6.598253821721301E-5  -8.057317137002324E-3  
 1.200000000000000E9    -9.727490833029151E-4   1.951377124209779E-2  -4.529839305584754E-2  -1.441558152437210E-1  -4.278945051639479E-2  -1.445205211639404E-1  -2.139230025932193E-3   2.122078676178410E-3  
 1.250000000000000E9    -1.682046800851822E-2   1.478238311203136E-2  -9.721899050818646E-2   1.157961934804916E-1  -9.610841419233082E-2   1.160297468304634E-1   1.125447265803814E-2   3.366747849637387E-3  
 1.300000000000000E9     3.577556926757097E-3   4.298412853588581E-3   1.499773994559890E-1   1.619577035307884E-2   1.486900420419030E-1   1.878115162253380E-2   4.327414091676474E-3  -4.586906033188560E-3  
 1.350000000000000E9    -6.090449169278145E-3   2.007520487968586E-2  -7.065539902764055E-2  -1.326106339693070E-1  -7.002314412198601E-2  -1.332915425300598E-1  -1.488037523813546E-3   4.111677124050367E-3  
 1.400000000000000E9    -2.338911406695843E-2  -4.366115525374603E-3  -6.978573872801293E-2   1.330435127019882E-1  -7.069839445767297E-2   1.332416087388992E-1  -7.426300435326994E-4   1.664147302473311E-3  
 1.450000000000000E9     1.601560856215656E-3   6.153541417351841E-3   1.485063360540309E-1  -1.861752569675446E-2   1.487220722929426E-1  -1.890540122985840E-2   6.545044598169625E-4  -3.360140604665759E-3  
 1.500000000000000E9    -1.131655834615231E-2   1.884506790267479E-2  -1.008209637109399E-1  -1.113750413060188E-1  -9.668192452747575E-2  -1.145495101809502E-1  -2.619021106511354E-4  -3.226241623913176E-3  
 1.550000000000000E9    -1.546693406999111E-2  -4.276570451521481E-3  -3.376737751595489E-2   1.460829675197601E-1  -3.671071044500002E-2   1.456212103366852E-1   1.551620778627694E-3   4.483659380905491E-4  
 1.600000000000000E9     1.663141138851643E-2   7.587777477998088E-3   1.421742008296691E-1  -4.641778022050858E-2   1.421308873291232E-1  -4.754725843667984E-2  -3.915153909474611E-3  -1.887416314037613E-3  
 1.650000000000000E9    -2.543174847960472E-2   2.167534579928479E-2  -1.212851211194291E-1  -8.728586137294769E-2  -1.204572684477017E-1  -8.832574635744095E-2   1.582128228619695E-3   9.982961559802626E-3  
 1.700000000000000E9    -1.817202381789684E-2  -6.758865193061969E-3  -4.926218905471351E-4   1.492706239223480E-1   3.388292888024358E-4   1.487253606319428E-1   7.281647529453039E-3  -2.539256827429451E-3  
 1.750000000000000E9     1.966705359518528E-2   8.201203564862772E-3   1.256951728343814E-1  -7.985696196556091E-2   1.234145596076193E-1  -8.259540051221848E-2   5.963054718449712E-4   1.389627511971136E-3  
 1.800000000000000E9    -1.939040236175060E-2   2.699843401918294E-2  -1.383271489004877E-1  -5.662874877452850E-2  -1.359500725053716E-1  -5.983906611800194E-2  -3.882888471707702E-3   2.492277550676350E-3  
 1.850000000000000E9    -1.173148956149817E-2  -2.011719137034481E-2   3.185040080852016E-2   1.457437574863434E-1   3.419370901858667E-2   1.446275413036346E-1  -1.238580234348774E-2   6.949694524029913E-3  
 1.900000000000000E9     1.908464170992374E-2   1.153933939537601E-2   1.036843098719905E-1  -1.069090217351914E-1   1.044786422956905E-1  -1.053636744618416E-1   2.211170969530940E-3  -7.592249295104409E-3  
 1.950000000000000E9    -2.948626689612865E-2   3.219611705221642E-2  -1.462725302017416E-1  -2.508011087775230E-2  -1.466720662165249E-1  -2.054661512374878E-2   4.983253311365843E-3   3.606493496657044E-4  
 2.000000000000000E9     4.425346851348877E-3  -3.482983615210773E-2   6.276443446815527E-2   1.340906918048859E-1   6.277503029862508E-2   1.343020945787430E-1   3.340589813888073E-3  -2.698549475585957E-4  
 2.050000000000000E9     2.611855417490006E-2   2.140576891712630E-2   7.643382833041676E-2  -1.273315697908402E-1   7.513387068527982E-2  -1.275160461664200E-1   4.703447222709656E-3  -3.864400847845892E-3  
 2.100000000000000E9    -2.669676765799522E-2   2.860354842166654E-2  -1.482750729381896E-1   1.101103425025940E-2  -1.474888213987604E-1   6.231179460883141E-3  -5.368777550756931E-3  -4.097688750570286E-3  
 2.150000000000000E9    -1.325583551079035E-2  -2.605687343761528E-2   9.164960343539773E-2   1.168515756726265E-1   8.980600930877239E-2   1.168362796306610E-1   4.087048117071390E-3  -1.152922697868878E-2  
 2.200000000000000E9     3.344669193029404E-2   1.690729146502915E-2   4.310430157358638E-2  -1.419456303119659E-1   4.475870412045901E-2  -1.396260410547257E-1   5.122688598930836E-3  -1.183243752272814E-2  
 2.250000000000000E9    -3.029735200107098E-2   3.415144025483189E-2  -1.419034111743993E-1   4.112319275736809E-2  -1.415240354574807E-1   3.968225792050362E-2   5.447298288345337E-3  -1.339459350314799E-2  
 2.300000000000000E9    -6.283977534621954E-3  -3.201317355491713E-2   1.150778713210327E-1   9.258723258972168E-2   1.139319855359860E-1   9.388601779937744E-2   4.950922913849354E-3  -8.072796639035278E-3  
 2.350000000000000E9     2.584523893892765E-2   1.201685690289072E-2   1.914316833360073E-2  -1.466752886772156E-1   1.366624770920081E-2  -1.457884013652802E-1   4.199148155748844E-3  -1.152769971110937E-2  
 2.400000000000000E9    -2.865797653794289E-2   3.133865825252004E-2  -1.280603957341128E-1   7.336656749248505E-2  -1.255669746344551E-1   7.390943169593811E-2  -2.135937800630927E-3  -4.644628681042083E-3  
 2.450000000000000E9    -2.360876416787505E-3  -3.440601563697179E-2   1.321722720427069E-1   6.520140171051025E-2   1.331214290763294E-1   6.202211603522301E-2  -1.460591738577932E-4  -9.077677642437373E-3  
 2.500000000000000E9     3.955733776092529E-2   1.561921574448874E-2  -1.804851901276953E-2  -1.459652483463287E-1  -2.275967841145802E-2  -1.457658261060715E-1   2.891551237553358E-3  -1.023340523816908E-2  
 2.550000000000000E9    -4.734481126070023E-2   3.533732102190818E-2  -1.089008087363126E-1   9.819986671209335E-2  -1.094879349336279E-1   9.918215125799179E-2   5.076270550489426E-3  -5.001726614009820E-3  
 2.600000000000000E9    -1.269242260605097E-2  -3.335977943255986E-2   1.425427579167395E-1   3.897040337324143E-2   1.423390117247562E-1   3.405776247382164E-2   7.549790199846029E-3  -1.133362050493681E-2  
 2.650000000000000E9     4.230985790491104E-2   1.666662305841399E-2  -5.499877952991893E-2  -1.366494745016098E-1  -5.097742630125999E-2  -1.370969265699387E-1   4.900285508483648E-3  -1.912168847235837E-2  
 2.700000000000000E9    -2.990712039172649E-2   4.201090675602189E-2  -8.169086172226200E-2   1.218667849898338E-1  -8.346026820812606E-2   1.199586987495422E-1  -1.261164434254170E-3  -1.446514018414263E-2  
 2.750000000000000E9    -1.381485257297754E-2  -3.602717890307249E-2   1.475153702246972E-1   6.752046174369752E-4   1.458432210848454E-1   1.198079844471067E-4   3.373521380126476E-3  -1.191589930966210E-2  
 2.800000000000000E9     4.746160283684731E-2   2.396354558346090E-2  -8.363043958681843E-2  -1.208964139223099E-1  -8.272544278769410E-2  -1.199759170413017E-1   4.113635048270226E-3  -1.549640807316361E-2  
 2.850000000000000E9    -2.192536368966103E-2   6.115043921564396E-2  -5.455635209786509E-2   1.362114548683167E-1  -5.676527143188028E-2   1.349080801010132E-1  -1.474736724048853E-3  -6.609683049903016E-3  
 2.900000000000000E9    -2.360989339649677E-2  -3.333399518211078E-2   1.424578782662690E-1  -3.478796407580376E-2   1.424640361856337E-1  -3.300832957029343E-2   4.622732289135456E-3  -8.974724921279308E-3  
 2.950000000000000E9     6.004799902439117E-2   2.851638270272331E-2  -1.061211171471561E-1  -1.009663641452789E-1  -1.062018145515287E-1  -1.006853580474854E-1  -3.141843015328050E-3  -1.536451031626887E-2  
 3.000000000000000E9    -3.112983889877796E-2   4.857460195752319E-2  -1.958184602288003E-2   1.449555605649948E-1  -2.589752736446804E-2   1.438536196947098E-1  -2.232481725513935E-3  -9.203548540908846E-3  
 3.050000000000000E9    -1.660736836493015E-2  -4.214139411117819E-2   1.315678471563512E-1  -6.551257520914078E-2   1.316373998224533E-1  -6.410191208124161E-2   1.193318422883749E-2  -7.073674361160780E-3  
 3.100000000000000E9     6.888931989669800E-2   2.057117743310156E-2  -1.267980195024130E-1  -7.363034784793854E-2  -1.265405647139377E-1  -7.264702022075653E-2  -6.309296470135450E-3  -1.317586010948403E-2  
 3.150000000000000E9    -3.340524062514305E-2   5.043916810584529E-2   1.160892083616299E-2   1.457320898771286E-1   1.004883659696402E-2   1.458547115325928E-1  -4.427928011864424E-3  -1.347202841362751E-2  
 3.200000000000000E9    -3.460736945271492E-2  -3.456307349259309E-2   1.154533443185604E-1  -9.029026329517365E-2   1.128626030286367E-1  -9.239155054092407E-2  -1.238558907061815E-3  -1.005536776538435E-2  
 3.250000000000000E9     8.423863351345062E-2   2.883476568186365E-2  -1.401175037127711E-1  -4.173754528164864E-2  -1.392434736165581E-1  -4.171560704708099E-2  -1.105284318327904E-2  -1.284947587173726E-2  
 3.300000000000000E9    -3.205362334847450E-2   7.520818932457166E-2   4.302252434558113E-2   1.392819136381149E-1   4.619437126571892E-2   1.381572932004929E-1  -1.365180872380734E-2  -1.223099031982346E-2  
 3.350000000000000E9    -3.007796593010426E-2  -5.249373643421738E-2   9.268678715879161E-2  -1.136681437492371E-1   9.286914009195950E-2  -1.125146150588989E-1  -7.803112966939807E-4  -3.774222562765653E-3  
 3.400000000000000E9     6.683246046304703E-2   2.626856076830535E-2  -1.449644249260660E-1  -1.600800268352032E-2  -1.448853335104804E-1  -9.568628855049610E-3  -8.974839933216572E-3  -7.076804390371187E-3  
 3.450000000000000E9    -2.394783869385719E-2   6.995418554759530E-2   7.286968817447498E-2   1.265554428100586E-1   7.103102788095841E-2   1.289667040109634E-1  -1.605642028152943E-2  -6.669134709809537E-4  
 3.500000000000000E9    -3.806020691990852E-2  -3.391176437510458E-2   6.304285460823186E-2  -1.324760168790817E-1   6.373944510964399E-2  -1.307612061500549E-1  -1.996903866529465E-2  -1.657059256348508E-2  
 3.550000000000000E9     6.426065415143967E-2   4.553943182265588E-3  -1.439521652743999E-1   2.311565913259983E-2  -1.436640265476288E-1   2.250801958143711E-2  -6.209182552993298E-3  -5.402706709978556E-3  
 3.600000000000000E9    -3.077783994376659E-2   7.581503627118653E-2   1.002695925607506E-1   1.057688146829605E-1   1.000345702618328E-1   1.064136251807213E-1  -6.295782513916493E-3   2.192778533118905E-3  
 3.650000000000000E9    -3.856714814901352E-2  -2.860473326135954E-2   3.187584650025320E-2  -1.430134624242783E-1   3.136003150321753E-2  -1.428421437740326E-1  -1.188560482114554E-2   1.051899487283988E-3  
 3.700000000000000E9     6.969863176345825E-2   1.509498549696210E-3  -1.360467941023034E-1   5.249861627817154E-2  -1.360576801284915E-1   5.179613083600998E-2  -1.012351829558611E-2   2.426370677328644E-4  
 3.750000000000000E9    -2.855019457638264E-2   8.441503422356364E-2   1.224860712968014E-1   7.896587252616882E-2   1.198883056020088E-1   8.249614387750626E-2  -5.386648699641228E-3   9.958730645572146E-4  
 3.800000000000000E9    -4.820415005087853E-2  -3.480379764175187E-2  -5.985026739071349E-3  -1.464034765958786E-1  -6.011666436403049E-3  -1.460901796817780E-1  -1.134973391890526E-2   5.329775759818743E-4  
 3.850000000000000E9     6.467940658330917E-2  -5.794363218510415E-3  -1.210681339591838E-1   8.193240314722061E-2  -1.233639553394813E-1   7.798862457275391E-2  -8.498507551848888E-3   1.027997379265560E-2  
 3.900000000000000E9    -1.383097190409899E-2   8.030317521727397E-2   1.360904541614241E-1   5.154124647378922E-2   1.369578626070913E-1   4.953198134899139E-2  -1.482826843857765E-2   3.754824817116110E-3  
 3.950000000000000E9    -6.323108077049255E-2  -3.910797409337893E-2  -3.679325178698015E-2  -1.415375471115112E-1  -3.586846282731625E-2  -1.407500505447388E-1  -8.922978304326534E-3   5.296096709362550E-3  
 4.000000000000000E9     6.761962175369263E-2  -7.135239875639981E-3  -9.720466109733086E-2   1.092589199542999E-1  -1.005760795456325E-1   1.056580618023872E-1   1.451458665542305E-3   5.951139521708319E-3  
 4.050000000000000E9    -3.110020607709885E-2   9.864499518847436E-2   1.440042353160660E-1   2.205886319279671E-2   1.442611066917757E-1   2.631495706737042E-2  -6.809141486883164E-3   6.765763039308115E-3  
 4.100000000000000E9    -5.906203016638756E-2  -2.629136084699428E-2  -6.439553389975353E-2  -1.314434409141541E-1  -6.576408193422259E-2  -1.308020055294037E-1  -2.829203614965081E-3   5.374894404754368E-3  
 4.150000000000000E9     6.645392626523972E-2  -5.470565900690729E-3  -7.149495454436779E-2   1.276445090770721E-1  -7.044321076140762E-2   1.273026764392853E-1   3.282101359218359E-3   5.590274262455807E-3  
 4.200000000000000E9     6.997958756983280E-3   1.017845626783429E-1   1.450073728822401E-1  -1.578982360661030E-2   1.452147568347529E-1  -1.768416725099087E-2  -2.895395737141371E-3   1.025458169069232E-2  
 4.250000000000000E9    -7.481310516595841E-2  -3.274567563790545E-2  -9.277522511708530E-2  -1.128202602267265E-1  -9.342729220186018E-2  -1.123252585530281E-1   4.304135683923960E-3   1.526599257909642E-2  
 4.300000000000000E9     8.410863578319550E-2  -1.996631490357952E-2  -3.794516511366922E-2   1.417652964591980E-1  -4.071314826869962E-2   1.401111632585526E-1   7.151422090828419E-3   5.989572928043960E-3  
 4.350000000000000E9     2.309879753738642E-3   8.597805592678111E-2   1.388925618413315E-1  -4.734907299280167E-2   1.360340829638183E-1  -5.121432989835739E-2  -9.789038449525833E-4   3.050782209757416E-3  
 4.400000000000000E9    -9.248819202184677E-2  -1.642410347982166E-2  -1.167324796550863E-1  -8.813147246837616E-2  -1.173494688431324E-1  -8.619134873151779E-2   5.395864602178335E-3   1.011225431218457E-2  
