#  HZ   S   RI   R     50.0 
! Rohde & Schwarz ZVL 
! 
! 
! 
 4.000000000000000E8    -1.241475809365511E-2  -8.239028387581025E-3  -1.342272572943308E-1   9.588370323181152E-1  -1.305841194915153E-1   9.611386060714722E-1  -1.621475629508495E-2  -6.193798437881480E-3  
 4.500000000000000E8    -2.381990663707256E-3   1.409284523271657E-2   9.078600826128243E-1   3.331440985202789E-1   9.085041597409436E-1   3.337631821632385E-1  -6.558008026331663E-3   1.206330838875491E-2  
 5.000000000000000E8    -4.632094409316778E-3  -9.656118085727306E-3   5.192778119022672E-1  -8.142935037612915E-1   5.168078567449681E-1  -8.158483505249023E-1  -4.593810066580772E-3  -7.632259328582272E-3  
 5.500000000000000E8    -6.967629306018353E-3   1.268310581173642E-2  -6.842133005046014E-1  -6.798958778381348E-1  -6.848263377051758E-1  -6.809208989143372E-1  -1.880694366991520E-2   1.231855975917518E-2  
 6.000000000000000E8     5.346028599888086E-3  -4.265027228314612E-3  -8.097814783737016E-1   5.226650834083557E-1  -8.063941143888620E-1   5.275624394416809E-1   1.776644610799849E-3  -2.419678433145061E-3  
 6.500000000000000E8    -1.026044506579638E-2   7.458891833100535E-3   3.427663607018049E-1   8.977575302124023E-1   3.388990199283360E-1   9.000362753868103E-1  -2.376082539558411E-2   2.240407417429887E-3  
 7.000000000000000E8     5.836206953972578E-3   9.614587998851244E-3   9.507125237551634E-1  -1.403243541717529E-1   9.506103215202841E-1  -1.420436352491379E-1  -7.558098877780139E-4   7.754132026058238E-3  
 7.500000000000000E8    -9.115663357079029E-3  -5.314538557444974E-3   6.752017350776085E-2  -9.584543704986572E-1   6.907699402519325E-2  -9.572727680206299E-1  -1.726569607853890E-2  -5.121503842342598E-3  
 8.000000000000000E8    -4.720428958535194E-3   1.500044225256350E-2  -9.213617825707151E-1  -2.717306911945343E-1  -9.223826900128213E-1  -2.662255764007568E-1  -8.500666357576847E-3   1.381371512409747E-2  
 8.500000000000000E8     9.361251140944660E-4  -9.519071393991489E-3  -4.598135094886197E-1   8.428580164909363E-1  -4.583420386972774E-1   8.417359590530396E-1  -5.174730904400349E-3  -4.548259616892908E-3  
 9.000000000000000E8    -1.334164012223482E-2   1.735357581702880E-2   7.270263010390403E-1   6.259627938270569E-1   7.212915021087361E-1   6.291613578796387E-1  -1.812089607119560E-2   1.544905688267013E-2  
 9.500000000000000E8     9.331025183200836E-3  -1.614216160483119E-3   7.682236046505099E-1  -5.703239440917969E-1   7.641365320175131E-1  -5.745040178298950E-1   3.259879304096103E-3   1.555101825004171E-3  
 1.000000000000000E9    -1.876321807503700E-2   1.075907138896127E-2  -3.925216892522270E-1  -8.698880076408386E-1  -3.964457764262415E-1  -8.682957887649536E-1  -2.563060633838177E-2   3.902789744682608E-3  
 1.050000000000000E9     9.008108638226986E-3   1.032034306525085E-2  -9.342864555975681E-1   2.041205167770386E-1  -9.332708308081567E-1   2.034954428672791E-1  -1.066849916242063E-3   1.219115167202363E-2  
 1.100000000000000E9    -1.204087678343058E-2  -6.513268527924329E-3   4.138457247311600E-5   9.558717608451843E-1  -2.648234044299516E-3   9.545753598213196E-1  -1.929862424731255E-2  -2.242508017846223E-3  
 1.150000000000000E9    -1.666103024035692E-3   1.794060231898202E-2   9.332409893299276E-1   2.004598230123520E-1   9.304822911329060E-1   2.074121534824371E-1  -6.129779852926731E-3   1.928465447068414E-2  
 1.200000000000000E9    -1.421045511960983E-3  -5.080911241608351E-3   4.011684266485323E-1  -8.646271824836731E-1   4.001729041236548E-1  -8.647000193595886E-1  -4.460738971829414E-3  -4.182782389279502E-3  
 1.250000000000000E9    -1.181080937385559E-2   1.949312629241999E-2  -7.594627586992022E-1  -5.738539695739746E-1  -7.611072690701638E-1  -5.713964104652405E-1  -1.865774393081665E-2   1.891089886191912E-2  
 1.300000000000000E9     1.029493752866983E-2   8.366097289946912E-4  -7.211073724886006E-1   6.201797723770142E-1  -7.211072890256950E-1   6.192865371704102E-1   4.144444596022368E-3   3.384028569549319E-3  
 1.350000000000000E9    -1.901926659047604E-2   8.890922327820967E-3   4.541739472904688E-1   8.373642563819885E-1   4.508185240131146E-1   8.380085229873657E-1  -2.401743456721306E-2   1.002725087038425E-2  
 1.400000000000000E9     1.070466265082359E-2   1.378285737429755E-2   9.124026705121190E-1  -2.660544216632843E-1   9.138883412945005E-1  -2.591146230697632E-1   2.718300092965365E-4   1.704094225560718E-2  
 1.450000000000000E9    -1.211955584585667E-2  -2.875001226962002E-3  -6.241504337603502E-2  -9.481084942817688E-1  -6.382448701782481E-2  -9.474877715110779E-1  -1.654860936105251E-2  -3.470076672973998E-3  
 1.500000000000000E9     2.236572094261646E-3   2.441987983464380E-2  -9.409523294600084E-1  -1.429609358310700E-1  -9.405529563607578E-1  -1.467517465353012E-1  -9.463504888117313E-3   2.585133697350171E-2  
 1.550000000000000E9     1.510568312369287E-3  -5.426840653942067E-3  -3.422190151100230E-1   8.853979110717773E-1  -3.434469439850446E-1   8.829228281974793E-1  -2.794289961457253E-3  -2.404282565182444E-3  
 1.600000000000000E9    -1.216666586697102E-2   1.987090423562303E-2   7.888797397553748E-1   5.235310196876526E-1   7.876365530310363E-1   5.192636251449585E-1  -1.742136850953102E-2   2.136863409317946E-2  
 1.650000000000000E9     1.445868983864784E-2  -2.307070695498755E-3   6.770599830871159E-1  -6.612774133682251E-1   6.795382416469268E-1  -6.576001644134522E-1   3.592467110138387E-4   1.039834511739101E-2  
 1.700000000000000E9    -1.764214225113392E-2   1.330407797415586E-2  -4.949096137956798E-1  -8.060142397880554E-1  -5.020592867641326E-1  -7.997496128082275E-1  -2.437915839254856E-2   8.160428306237004E-3  
 1.750000000000000E9     6.643961183726788E-3   1.988054485322365E-2  -8.906895334140856E-1   3.189520239830017E-1  -8.897073541287988E-1   3.152974843978882E-1   8.124946616590023E-3   1.785615853492133E-2  
 1.800000000000000E9    -1.343495305627585E-2  -4.019085118115677E-3   1.191971461506254E-1   9.364648461341858E-1   1.211277715675715E-1   9.355951547622681E-1  -1.822075620293617E-2   1.316789413068494E-3  
 1.850000000000000E9     6.217312067747116E-3   3.233399789295575E-2   9.394570909020439E-1   8.033761382102966E-2   9.404006385657868E-1   8.084469288587570E-2  -1.086844969540834E-2   3.003691319088167E-2  
 1.900000000000000E9     3.195524448528886E-3  -5.519671694591929E-3   2.862959350986818E-1  -8.995759487152100E-1   2.824117010190089E-1  -9.000050425529480E-1   1.772453077137470E-3  -3.785419582996179E-4  
 1.950000000000000E9    -1.031942851841450E-2   2.452882393085870E-2  -8.198808176815202E-1  -4.596400558948517E-1  -8.136805761730847E-1  -4.648098647594452E-1  -2.008483745157719E-2   2.173074382954904E-2  
 2.000000000000000E9     1.502966880798340E-2   2.397022547082137E-3  -6.302947584122920E-1   6.933867931365967E-1  -6.261135002752183E-1   6.951363086700440E-1   6.298488471657038E-3   1.058356697962526E-2  
 2.050000000000000E9    -1.859877444803715E-2   9.095511656724073E-3   5.458076248899861E-1   7.621056437492371E-1   5.515548016653704E-1   7.584716677665710E-1  -2.138024941086769E-2   1.361428914044000E-2  
 2.100000000000000E9     1.522532291710377E-2   2.174840777655459E-2   8.622848030310697E-1  -3.724516630172730E-1   8.611251171972689E-1  -3.746506571769714E-1   3.065309254452586E-3   2.309485365288646E-2  
 2.150000000000000E9    -1.296351943165064E-2  -3.246012615502829E-3  -1.802000130112754E-1  -9.220331907272339E-1  -1.826973534102315E-1  -9.207667112350464E-1  -1.581538096070290E-2   3.912493336787985E-3  
 2.200000000000000E9     2.488652011379600E-3   3.172867486440944E-2  -9.361283720401010E-1  -2.341252937912941E-2  -9.363789721498045E-1  -1.889418810606003E-2  -8.309463970363140E-3   3.162035283541205E-2  
 2.250000000000000E9     2.149669919162989E-3  -9.408308171737779E-3  -2.227471739141227E-1   9.095380306243897E-1  -2.194025867541319E-1   9.105460047721863E-1  -4.859264940023422E-3   1.069315468446672E-3  
 2.300000000000000E9    -1.656229421496391E-2   2.740024682349281E-2   8.424325729757881E-1   4.113730490207672E-1   8.422566542187520E-1   4.106889069080353E-1  -1.500356383621693E-2   3.119811367544088E-2  
 2.350000000000000E9     1.592806354165077E-2   7.639859485897056E-3   5.801592713016810E-1  -7.358072996139526E-1   5.803534959077138E-1  -7.360962033271790E-1   8.215141482651234E-3   1.183553984660368E-2  
 2.400000000000000E9    -2.509243972599506E-2   1.392960579232213E-2  -5.942388193391787E-1  -7.233170866966248E-1  -5.884955213365457E-1  -7.271463274955750E-1  -2.316961809992790E-2   2.027497993706334E-2  
 2.450000000000000E9     1.092502381652594E-2   3.075901092581765E-2  -8.350295139271367E-1   4.218445122241974E-1  -8.348385837428656E-1   4.191022217273712E-1   1.497955154627562E-2   3.153692349200886E-2  
 2.500000000000000E9    -1.314111519604921E-2   1.450739536624782E-3   2.353547387775450E-1   9.069346189498901E-1   2.332709085741626E-1   9.054555296897888E-1  -1.874359324574471E-2   1.901073831799445E-3  
 2.550000000000000E9     4.131551366299391E-3   4.111308564245870E-2   9.350607937829567E-1  -3.673889860510826E-2   9.308999282526167E-1  -3.584325313568115E-2  -4.274240229278803E-3   4.047595214521400E-2  
 2.600000000000000E9     1.087132375687361E-2  -7.994734095224186E-4   1.630102529261709E-1  -9.189835190773010E-1   1.659774416152542E-1  -9.186391830444336E-1   4.345689434558153E-3   4.494346954453930E-3  
 2.650000000000000E9    -1.556492689996958E-2   3.150921887649683E-2  -8.628174829765603E-1  -3.522814512252808E-1  -8.630201500318445E-1  -3.548064231872559E-1  -1.663995161652565E-2   3.364742400741382E-2  
 2.700000000000000E9     2.062544599175453E-2   1.459605045337400E-2  -5.305866152905828E-1   7.673930525779724E-1  -5.333350894706568E-1   7.687987685203552E-1   1.659722067415714E-2   1.605510881148833E-2  
 2.750000000000000E9    -2.206351049244404E-2   1.419071876359986E-2   6.322690129287034E-1   6.835193037986755E-1   6.340867251333053E-1   6.821817755699158E-1  -1.997493207454681E-2   2.134081764656913E-2  
 2.800000000000000E9     1.867673546075821E-2   3.624963309599821E-2   8.052274246727393E-1  -4.632565975189209E-1   7.996467197733814E-1  -4.722402095794678E-1   1.695097237825394E-2   3.597569262460634E-2  
 2.850000000000000E9    -1.121844514273107E-3  -9.817028329239543E-6  -2.850064667816352E-1  -8.850827217102051E-1  -2.875480525535616E-1  -8.842287063598633E-1  -6.475627422332764E-3   3.686896995671807E-3  
 2.900000000000000E9     2.196076791733503E-3   3.867567382774231E-2  -9.224323496176128E-1   9.822402894496918E-2  -9.249061443931805E-1   9.043870866298676E-2  -2.228806028142571E-3   3.805510619456209E-2  
 2.950000000000000E9     1.055825315415859E-2   2.054948561512103E-3  -1.071082621870207E-1   9.229769706726074E-1  -1.074852200231247E-1   9.222118854522705E-1   8.729070425033569E-3   4.191585977172658E-3  
 3.000000000000000E9    -1.513583213090897E-2   2.896600052355258E-2   8.769324387799731E-1   3.011094629764557E-1   8.774159383691651E-1   3.001458644866943E-1  -1.044935174286366E-2   3.502955540341059E-2  
 3.050000000000000E9     2.008393779397011E-2   1.419638773585741E-2   4.751449224511537E-1  -7.921583652496338E-1   4.799374931108058E-1  -7.940118908882141E-1   1.950349099934101E-2   1.807432067659813E-2  
 3.100000000000000E9    -1.769970357418060E-2   1.291431058690019E-2  -6.741479296467176E-1  -6.374619603157044E-1  -6.710973031539720E-1  -6.400398015975952E-1  -1.428002305328846E-2   2.166831892596937E-2  
 3.150000000000000E9     1.544148195534945E-2   3.553111485826961E-2  -7.630443072261667E-1   5.226302146911621E-1  -7.693344525810294E-1   5.196344256401062E-1   2.228525094687939E-2   3.256287058296953E-2  
 3.200000000000000E9    -2.057054312899709E-3   1.869208687758519E-3   3.442416094194704E-1   8.595871329307556E-1   3.468913501478541E-1   8.600227832794190E-1  -4.181841854006052E-3   5.399639859633776E-3  
 3.250000000000000E9    -2.878015395253897E-3   3.995432675499388E-2   9.118055159808260E-1  -1.523281633853912E-1   9.137807513352794E-1  -1.512703597545624E-1   1.032306998968124E-2   4.140241901500319E-2  
 3.300000000000000E9     1.472457963973284E-2   7.269985027901030E-3   4.711471750044288E-2  -9.247806072235107E-1   5.612879197522994E-2  -9.245685935020447E-1   1.365151628851891E-2  -2.665931569807157E-3  
 3.350000000000000E9    -3.953722771257162E-3   2.395502801743493E-2  -8.909926808472185E-1  -2.479531317949295E-1  -8.898220887130337E-1  -2.504128813743591E-1  -8.938514627516270E-3   2.688595856190361E-2  
 3.400000000000000E9     1.864243112504482E-2   1.466008104902644E-2  -4.281713050031488E-1   8.174927234649658E-1  -4.254317265023047E-1   8.176196813583374E-1   2.128957211971283E-2   1.545799965163675E-2  
 3.450000000000000E9    -8.684604428708553E-3   1.493955570944923E-2   7.106248834363003E-1   5.940765142440796E-1   7.082059190080048E-1   5.964625477790833E-1  -1.210489962249994E-2   1.698718277346394E-2  
 3.500000000000000E9     1.157439872622490E-2   2.500399095321153E-2   7.299521871499293E-1  -5.690760612487793E-1   7.362874599602756E-1  -5.685622692108154E-1   1.624852046370506E-2   2.559730392634931E-2  
 3.550000000000000E9    -8.573190309107304E-3   6.911960607851053E-3  -3.999922379863260E-1  -8.345063924789429E-1  -3.942675539664399E-1  -8.379475474357605E-1  -1.046762429177761E-2   8.090970243234446E-3  
 3.600000000000000E9     8.897012099623680E-3   3.422553105363618E-2  -8.969923217937756E-1   2.062637805938721E-1  -8.948891007953460E-1   2.096745818853378E-1   5.572290159761906E-3   3.941749138350652E-2  
 3.650000000000000E9     7.689645979553461E-3   1.396826703194543E-3   3.042845904356399E-3   9.176251292228699E-1   8.807931509433660E-3   9.174019098281860E-1   1.033785007894039E-2   3.663430296035370E-3  
 3.700000000000000E9    -1.238022651523352E-2   3.338564243543164E-2   8.993107905411392E-1   1.897834241390228E-1   8.962118209958635E-1   1.803636103868485E-1  -1.949031837284565E-3   3.768234851543854E-2  
 3.750000000000000E9     1.547125633805990E-2   1.786422789391902E-2   3.804713628328222E-1  -8.354512453079224E-1   3.773527723516353E-1  -8.330911993980408E-1   2.327024191617966E-2   9.706183617985222E-3  
 3.800000000000000E9    -9.415579959750176E-3   1.955323163577678E-2  -7.354164522232384E-1  -5.508422255516052E-1  -7.416052762484973E-1  -5.419795513153076E-1  -1.168877538293600E-2   2.082440298933594E-2  
 3.850000000000000E9     1.790761575102806E-2   2.702751110558182E-2  -6.902042517762941E-1   6.034728884696960E-1  -6.932621077262411E-1   6.039926409721375E-1   2.169997990131378E-2   3.004315206871152E-2  
 3.900000000000000E9    -4.966333042830229E-3   9.382277782212185E-3   4.405295637456892E-1   8.051962256431580E-1   4.489028024929986E-1   8.068683147430420E-1  -9.975674562156200E-3   6.019288913895329E-3  
 3.950000000000000E9     1.527300570160151E-2   3.256310697853789E-2   8.813039937143330E-1  -2.555746734142304E-1   8.796283535765874E-1  -2.590137422084808E-1   7.327872328460217E-3   3.989967700239198E-2  
 4.000000000000000E9     6.385778076946735E-3   2.996033458191457E-3  -5.392047210828527E-2  -9.166446924209595E-1  -6.448712838399170E-2  -9.134652018547058E-1   9.339746087789536E-3   3.649577375928881E-3  
 4.050000000000000E9    -4.045084584504366E-3   3.415381452485758E-2  -9.068469198269533E-1  -1.342866271734238E-1  -9.057241965031007E-1  -1.256120949983597E-1  -2.490604761987925E-3   3.604356028527385E-2  
 4.100000000000000E9     1.937632821500301E-2   1.060830200629068E-2  -3.201497127296554E-1   8.591111302375794E-1  -3.224252686835127E-1   8.599464893341065E-1   2.372219599783421E-2   1.179936858718040E-2  
 4.150000000000000E9    -8.991750888526440E-3   2.283806060126934E-2   7.726921169216074E-1   4.941443800926209E-1   7.754442867329769E-1   4.983751475811005E-1  -1.379289012402296E-2   2.177263968085758E-2  
 4.200000000000000E9     2.570006437599659E-2   2.003760527744880E-2   6.454998958457660E-1  -6.488401889801025E-1   6.527509116133931E-1  -6.497638225555420E-1   2.414434589445591E-2   2.909901247921622E-2  
 4.250000000000000E9    -8.256718516349793E-3   8.278381301552850E-3  -4.910031433090838E-1  -7.704457044601440E-1  -4.956216952971292E-1  -7.724824547767639E-1  -4.654499236494303E-3   1.111659413028101E-2  
 4.300000000000000E9     1.518990192562342E-2   3.304446750747553E-2  -8.593897324996658E-1   3.113760054111481E-1  -8.564870656405568E-1   3.107824623584747E-1   1.463702227920294E-2   3.865574642462002E-2  
 4.350000000000000E9     4.203424789011478E-3   9.709346646846288E-4   1.212747974460162E-1   9.093757867813110E-1   1.214248726927308E-1   9.061412811279297E-1   7.319121621549130E-3   6.048360798222336E-3  
 4.400000000000000E9    -5.930168088525534E-3   3.813131213939403E-2   9.128161041994027E-1   8.124736696481705E-2   9.043586365910923E-1   7.949593663215637E-2   2.391232876107097E-3   3.837907679011972E-2  
