#  HZ   S   RI   R     50.0 
! Rohde & Schwarz ZVL 
! 
! 
! 
 4.000000000000000E8     5.848700180649757E-3   7.297617598520536E-3   1.035897824997965E-1   1.135277003049851E-1   1.036601834947729E-1   1.137197613716126E-1  -2.060879953205586E-2  -8.909665731615576E-3  
 4.500000000000000E8     6.520861759781838E-3   7.145824719253564E-3   1.233334697202874E-1  -9.113595634698868E-2   1.228555256323268E-1  -9.183665364980698E-2  -5.435272119939327E-3   1.477121848033997E-2  
 5.000000000000000E8     7.124995812773705E-3   7.270705019132970E-3  -7.816618636099959E-2  -1.315935552120209E-1  -7.819444293544230E-2  -1.315468698740006E-1  -8.431579917669296E-3  -1.188147622465710E-2  
 5.500000000000000E8     8.880492299795151E-3   7.420564900894759E-3  -1.389011139718518E-1   6.366404891014099E-2  -1.389645689285904E-1   6.346887350082398E-2  -1.755879260599613E-2   1.257717517124421E-2  
 6.000000000000000E8     9.330022148787975E-3   7.940067590979384E-3   4.899125586505489E-2   1.444789320230484E-1   4.934599733744882E-2   1.444370001554489E-1  -9.977008448913693E-5  -3.725979821363558E-3  
 6.500000000000000E8     1.073069404810667E-2   8.046449988586377E-3   1.487625889741499E-1  -3.257210552692413E-2   1.484962663147399E-1  -3.382928296923637E-2  -2.242082357406616E-2   3.728254034897732E-3  
 7.000000000000000E8     1.093947235494852E-2   7.634575064097794E-3  -1.653516561432525E-2  -1.511571705341339E-1  -1.802512304421939E-2  -1.509780734777451E-1  -8.810193394310772E-4   8.019174333259211E-3  
 7.500000000000000E8     1.251541823148727E-2   7.939519303822078E-3  -1.518724246836310E-1   6.293280748650432E-4  -1.518392401546448E-1   5.253239069133997E-4  -1.787025295197964E-2  -3.373678241822261E-3  
 8.000000000000000E8     1.317059341818094E-2   7.620811511788741E-3  -1.480428852761263E-2   1.509979069232941E-1  -1.439472234061560E-2   1.509411633014679E-1  -8.150453679263592E-3   1.460206399379558E-2  
 8.500000000000000E8     1.458447799086571E-2   7.360874211289501E-3   1.482333008605005E-1   3.099711798131466E-2   1.481756913799754E-1   3.110973350703716E-2  -8.824117481708527E-3  -4.363289167085898E-3  
 9.000000000000000E8     1.525805145502091E-2   6.537531604038768E-3   4.567520071366375E-2  -1.442072540521622E-1   4.677367127735611E-2  -1.436094939708710E-1  -1.667482778429985E-2   1.347882618101060E-2  
 9.500000000000000E8     1.662973314523697E-2   6.425505621223219E-3  -1.382195574054871E-1  -6.074700504541397E-2  -1.380589178033834E-1  -6.081450358033180E-2  -3.049266233574599E-4   1.937055735687063E-3  
 1.000000000000000E9     1.748633012175560E-2   5.578202858436012E-3  -7.498524547642180E-2   1.307180970907211E-1  -7.500592656448839E-2   1.306217312812805E-1  -2.059391327202320E-2   3.029872962678590E-3  
 1.050000000000000E9     1.857093907892704E-2   5.448434725236036E-3   1.222756835641259E-1   8.767370134592056E-2   1.221585363721068E-1   8.769920468330383E-2  -6.059129256755114E-3   1.299662421758111E-2  
 1.100000000000000E9     2.032504230737686E-2   3.970090619142864E-3   1.005117711596025E-1  -1.119522675871849E-1   1.001806664453453E-1  -1.119702309370041E-1  -1.500211004167795E-2  -8.155947805446249E-4  
 1.150000000000000E9     1.971539109945297E-2   3.582766815917898E-3  -1.005133275757447E-1  -1.114771142601967E-1  -1.004207595285114E-1  -1.113125979900360E-1  -1.171822659671307E-2   1.845863043905188E-2  
 1.200000000000000E9     2.160947769880295E-2   2.305285245469446E-3  -1.211883012164297E-1   8.847365528345108E-2  -1.205413010967164E-1   8.914096653461456E-2  -3.390972269698978E-3  -1.032067666470415E-3  
 1.250000000000000E9     2.150142565369606E-2   8.229159286155699E-4   7.480122441995306E-2   1.297838836908341E-1   7.513733542000448E-2   1.295036077499390E-1  -2.231387421488762E-2   1.259854010399564E-2  
 1.300000000000000E9     2.246799506247044E-2  -6.568951698619052E-4   1.362706869794688E-1  -6.115544959902763E-2   1.363278706498806E-1  -6.132506579160690E-2   2.431648550555110E-3   1.245430963119389E-2  
 1.350000000000000E9     2.286341600120068E-2  -1.797480213919047E-3  -4.619813301349431E-2  -1.420775949954987E-1  -4.627824682413809E-2  -1.421522796154022E-1  -2.114321663975716E-2   1.545104407487963E-4  
 1.400000000000000E9     2.415713295340538E-2  -2.962974149488513E-3  -1.458811011480571E-1   3.061901405453682E-2  -1.458943206846942E-1   2.999994903802872E-2  -5.849294830113649E-3   2.502018300533145E-2  
 1.450000000000000E9     2.401651255786419E-2  -4.583074023408224E-3   1.626917572295254E-2   1.477982550859451E-1   1.527960767431873E-2   1.480536311864853E-1  -8.312135934829712E-3  -5.978885200857379E-3  
 1.500000000000000E9     2.412474155426025E-2  -5.415994563416285E-3   1.488225521646650E-1  -6.869726930744946E-4   1.489168697884002E-1   1.381358597427607E-4  -2.124335058033466E-2   2.696120271936862E-2  
 1.550000000000000E9     2.470583468675613E-2  -8.679052896357082E-3   1.691279067708755E-2  -1.478390693664551E-1   1.662409299380006E-2  -1.477164924144745E-1   7.419764064252377E-3   2.938981233130582E-3  
 1.600000000000000E9     2.476646751165390E-2  -9.163986925651148E-3  -1.447796329868269E-1  -3.172687813639641E-2  -1.445513935521937E-1  -3.180917724967003E-2  -3.113958984613419E-2   1.221997273198697E-2  
 1.650000000000000E9     2.391027472913265E-2  -1.156186298839415E-2  -4.687307029162401E-2   1.404454261064529E-1  -4.707572839871892E-2   1.404014825820923E-1   9.875293821096420E-3   2.228740931075875E-2  
 1.700000000000000E9     2.384808845818043E-2  -1.277769632795243E-2   1.348465141931155E-1   6.114716082811356E-2   1.349296819673765E-1   6.079227849841118E-2  -2.486573532223702E-2  -2.936284894345829E-3  
 1.750000000000000E9     2.343427948653698E-2  -1.434691535605934E-2   7.526917873973144E-2  -1.271822750568390E-1   7.479589749047122E-2  -1.273528635501862E-1  -5.283559439703822E-4   3.699613151397298E-2  
 1.800000000000000E9     2.261012792587280E-2  -1.538415457424299E-2  -1.187908481893357E-1  -8.766427636146545E-2  -1.185046861238916E-1  -8.807110041379929E-2  -8.089091628789902E-3  -1.386516497248231E-2  
 1.850000000000000E9     2.199724502861500E-2  -1.800635935731887E-2  -9.947453575173805E-2   1.089972257614136E-1  -9.971253714585369E-2   1.089254394173622E-1  -2.645542472600937E-2   4.209209894221802E-2  
 1.900000000000000E9     1.992629654705524E-2  -1.976690384496264E-2   9.798060259878968E-2   1.110104769468308E-1   9.714389368789587E-2   1.118411719799042E-1   1.881652884185314E-2  -8.557058543520470E-4  
 1.950000000000000E9     1.992446370422840E-2  -2.066134335292268E-2   1.205914666563479E-1  -8.514904230833054E-2   1.200850269175857E-1  -8.500446379184723E-2  -4.204754531383514E-2   1.849844880941093E-2  
 2.000000000000000E9     1.802681758999825E-2  -2.185715309666070E-2  -7.119200372300613E-2  -1.284278184175491E-1  -7.160305889404899E-2  -1.280193626880646E-1   2.274514921009541E-2   2.779319174664597E-2  
 2.050000000000000E9     1.669427566230297E-2  -2.304845046497274E-2  -1.347814495769824E-1   5.777602270245552E-2  -1.345533200995942E-1   5.859549343585968E-2  -3.502004593610764E-2  -6.263302540835000E-3  
 2.100000000000000E9     1.528861466795206E-2  -2.523615670731454E-2   4.296708523487604E-2   1.401974856853485E-1   4.354480430603340E-2   1.400277316570282E-1   6.957221776247025E-3   5.179239464039045E-2  
 2.150000000000000E9     1.367047335952520E-2  -2.510032488614811E-2   1.440013534115361E-1  -2.777620032429695E-2   1.438989909960986E-1  -2.835314907133579E-2  -8.808972314000130E-3  -2.051400147008306E-2  
 2.200000000000000E9     1.240998227149248E-2  -2.547589322653708E-2  -1.270343401789376E-2  -1.454847157001495E-1  -1.283725295497913E-2  -1.455537229776382E-1  -2.458924613893032E-2   5.662424144266727E-2  
 2.250000000000000E9     1.015745941549540E-2  -2.554155490909561E-2  -1.461223217646931E-1  -2.982276491820812E-3  -1.462048064034679E-1  -2.386660315096378E-3   2.148671820759773E-2  -7.870003683367679E-3  
 2.300000000000000E9     8.732233196496964E-3  -2.743167773147729E-2  -1.719177085583462E-2   1.448807567358017E-1  -1.868290776880687E-2   1.449815034866333E-1  -4.685712978243828E-2   3.864135094928359E-2  
 2.350000000000000E9     7.912828586995602E-3  -2.607599150891325E-2   1.422405486290911E-1   3.316277265548706E-2   1.422466646336633E-1   3.304433077573776E-2   4.054787755012512E-2   2.313657791108106E-2  
 2.400000000000000E9     6.258738227188587E-3  -2.607796469403353E-2   4.821138978980516E-2  -1.376425176858902E-1   4.814658935545439E-2  -1.376895308494568E-1  -5.041358247399330E-2   3.421850170950758E-3  
 2.450000000000000E9     3.545422572642565E-3  -2.513225786030899E-2  -1.311893010728564E-1  -6.287067383527756E-2  -1.312424660823370E-1  -6.253127753734589E-2   3.213392570614815E-2   6.446221568067953E-2  
 2.500000000000000E9     3.432439174503088E-3  -2.631425000285527E-2  -7.589386526547361E-2   1.245880946516991E-1  -7.613037750987944E-2   1.244798377156258E-1  -1.982137560844421E-2  -3.273932124276009E-2  
 2.550000000000000E9     2.500678412616253E-3  -2.576154034750267E-2   1.154077418240010E-1   8.812298625707626E-2   1.153475619974098E-1   8.794112503528595E-2  -1.519605703651905E-2   8.195723007710436E-2  
 2.600000000000000E9     2.051828894764185E-3  -2.481087308729491E-2   1.003732002717408E-1  -1.049295961856842E-1   1.001350554610313E-1  -1.051326468586922E-1   3.120106458663940E-2  -2.337935952689648E-2  
 2.650000000000000E9    -4.870739940088242E-4  -2.395086758097690E-2  -9.411600459898030E-2  -1.101350486278534E-1  -9.527557493781562E-2  -1.091624423861504E-1  -5.259109660983086E-2   5.704825361707804E-2  
 2.700000000000000E9    -4.202842537779361E-4  -2.458764286849943E-2  -1.194986373270920E-1   8.215312659740448E-2  -1.195254741153369E-1   8.215483278036118E-2   6.068208813667297E-2   1.672142539112704E-2  
 2.750000000000000E9    -1.035206485539675E-3  -2.428881885844243E-2   6.939507880647511E-2   1.271606385707855E-1   6.935628162771183E-2   1.272250562906265E-1  -6.267075985670090E-2   8.649565856056987E-3  
 2.800000000000000E9    -6.706750136800110E-4  -2.211583777211718E-2   1.334699227260108E-1  -5.502320080995560E-2   1.333456915289974E-1  -5.467341095209122E-2   5.378851294517517E-2   6.959919410318644E-2  
 2.850000000000000E9    -2.593290060758591E-3  -2.304983636622732E-2  -4.035433984641964E-2  -1.386923789978027E-1  -4.108153083474211E-2  -1.386863142251968E-1  -2.529904618859291E-2  -3.791920929758388E-2  
 2.900000000000000E9    -2.075593685731292E-3  -2.290316002762270E-2  -1.417369923088302E-1   2.633580751717091E-2  -1.416951357015517E-1   2.563297376036644E-2   2.733856672421098E-3   9.132417600033790E-2  
 2.950000000000000E9    -1.951935351826251E-3  -2.409804607484039E-2   1.124512720778944E-2   1.439464390277863E-1   1.081170187217282E-2   1.440493464469910E-1   2.779995091259480E-2  -4.029206145912814E-2  
 3.000000000000000E9    -3.096214029937983E-3  -2.190998785863466E-2   1.436697141290713E-1   3.840263700112701E-3   1.438238076868418E-1   3.278777236118913E-3  -4.554818198084831E-2   7.516566746955528E-2  
 3.050000000000000E9    -3.954579588025808E-3  -2.370187059972467E-2   1.948786579404739E-2  -1.423495560884476E-1   1.969480079246848E-2  -1.427835226058960E-1   7.036171853542328E-2  -2.216384724093502E-3  
 3.100000000000000E9    -4.690262023359537E-3  -2.364712204077985E-2  -1.398930566053501E-1  -3.351189196109772E-2  -1.400822231035193E-1  -3.340000286698341E-2  -6.940642744302750E-2   2.605260832143901E-2  
 3.150000000000000E9    -3.777422243729234E-3  -2.463501594554220E-2  -4.934117286186433E-2   1.347119808197022E-1  -4.874170237564801E-2   1.352896839380264E-1   7.707410305738449E-2   5.632021334570703E-2  
 3.200000000000000E9    -4.558304324746132E-3  -2.357663237167596E-2   1.291630750266801E-1   6.344127655029297E-2   1.293614912197748E-1   6.303978711366653E-2  -4.498936235904694E-2  -3.330122890561919E-2  
 3.250000000000000E9    -6.016637198626995E-3  -2.389515043091241E-2   7.488626013118795E-2  -1.220979392528534E-1   7.553041280852535E-2  -1.219563707709312E-1   3.560465574264526E-2   9.823031826554564E-2  
 3.300000000000000E9    -7.517285645008087E-3  -2.548268154294322E-2  -1.129366511805364E-1  -8.913849294185638E-2  -1.132991377934473E-1  -8.839724957942963E-2   1.663654483854771E-2  -6.191642086320193E-2  
 3.350000000000000E9    -6.852781865745783E-3  -2.576205122957391E-2  -9.963011929514197E-2   1.034663170576096E-1  -9.954823290605117E-2   1.032110527157784E-1  -3.368891403079033E-2   8.906947376019736E-2  
 3.400000000000000E9    -9.342340752482414E-3  -2.547731333616112E-2   9.205207487881165E-2   1.101575195789337E-1   9.265045351921550E-2   1.094276905059815E-1   6.869248300790787E-2  -3.011863668498189E-2  
 3.450000000000000E9    -1.064469013363123E-2  -2.511612319513278E-2   1.191055227037984E-1  -8.067243546247482E-2   1.189172101453590E-1  -8.047363162040710E-2  -7.204784452915192E-2   4.152530133562700E-2  
 3.500000000000000E9    -1.265670172870159E-2  -2.657576438323830E-2  -6.861346949577413E-2  -1.263580769300461E-1  -6.753055890135305E-2  -1.272470206022263E-1   8.571618050336838E-2   2.728521505121989E-2  
 3.550000000000000E9    -1.194408442825079E-2  -2.563652582971988E-2  -1.336256759273495E-1   5.368817225098610E-2  -1.332121742125650E-1   5.354318395256996E-2  -7.266298681497574E-2  -1.895468171451667E-2  
 3.600000000000000E9    -1.404159050434828E-2  -2.460811257280092E-2   3.946204404110609E-2   1.378848701715469E-1   3.916818424258245E-2   1.372779905796051E-1   5.599002912640572E-2   9.241182060798926E-2  
 3.650000000000000E9    -1.648154482245445E-2  -2.312646933617837E-2   1.413523132520094E-1  -2.465355582535267E-2   1.408203273565421E-1  -2.453258261084557E-2  -1.590437814593315E-2  -5.961565651979604E-2  
 3.700000000000000E9    -1.827400550246239E-2  -2.492674502713130E-2  -1.062727732034819E-2  -1.428397446870804E-1  -1.035744348864165E-2  -1.421927362680435E-1  -3.339462913572788E-3   1.102003768927168E-1  
 3.750000000000000E9    -1.820461265742779E-2  -2.301676495890496E-2  -1.430401303709022E-1  -5.795631557703018E-3  -1.426900850989755E-1  -4.808616824448109E-3   5.567890033125877E-2  -5.514553842359506E-2  
 3.800000000000000E9    -1.975151151418686E-2  -2.086765456647610E-2  -1.972193170186211E-2   1.414881646633148E-1  -1.915308075070799E-2   1.417145729064941E-1  -6.717345863580704E-2   7.144033048947011E-2  
 3.850000000000000E9    -2.208025753498077E-2  -1.946962959666026E-2   1.387315776928149E-1   3.394967317581177E-2   1.387785865754145E-1   3.388185426592827E-2   9.553935378789902E-2   1.961396840890705E-3  
 3.900000000000000E9    -2.238727733492851E-2  -1.956635010745512E-2   4.761692750198613E-2  -1.351650506258011E-1   4.744660732078324E-2  -1.356509178876877E-1  -8.277168869972229E-2   1.577716881517676E-3  
 3.950000000000000E9    -2.237425558269024E-2  -1.801098201343054E-2  -1.289323801416581E-1  -6.286294013261795E-2  -1.287876221786088E-1  -6.219958513975143E-2   7.922924309968948E-2   7.560841249770560E-2  
 4.000000000000000E9    -2.188296802341938E-2  -1.425700514521174E-2  -7.597253846206505E-2   1.218415647745132E-1  -7.553110907286492E-2   1.219636648893356E-1  -4.032452777028084E-2  -5.293373910398867E-2  
 4.050000000000000E9    -2.384692244231701E-2  -1.247722224289936E-2   1.132208877958958E-1   8.729907870292664E-2   1.135177722516651E-1   8.658606559038162E-2   2.413898706436157E-2   1.123128225031964E-1  
 4.100000000000000E9    -2.263457328081131E-2  -1.219906840975594E-2   9.916188915810191E-2  -1.034411564469338E-1   9.950832006981397E-2  -1.041685044765472E-1   3.092226386070252E-2  -6.833743422586450E-2  
 4.150000000000000E9    -2.109016664326191E-2  -1.061112676824954E-2  -9.340146592849105E-2  -1.086272895336151E-1  -9.384898524468720E-2  -1.092007532715797E-1  -4.747946560382843E-2   9.501192019808902E-2  
 4.200000000000000E9    -1.933899521827698E-2  -6.683053460485181E-3  -1.183166419123462E-1   8.193931728601456E-2  -1.192448180289309E-1   8.134892582893372E-2   8.768472075462341E-2  -2.271557507956964E-2  
 4.250000000000000E9    -2.045782841742039E-2  -6.484953990148167E-3   6.978841030985580E-2   1.258276551961899E-1   6.881774833912763E-2   1.268711835145950E-1  -8.125919848680496E-2   3.623862014599862E-2  
 4.300000000000000E9    -1.785385981202126E-2  -6.245402245182776E-3   1.327151032196107E-1  -5.553369969129562E-2   1.331695772640986E-1  -5.492406710982323E-2   9.945091605186462E-2   4.652707949806578E-2  
 4.350000000000000E9    -1.411426812410355E-2  -6.221058700737409E-3  -4.221113154484844E-2  -1.380814462900162E-1  -4.112248602653164E-2  -1.387306749820709E-1  -6.493472307920456E-2  -3.354464126038927E-2  
 4.400000000000000E9    -1.230892725288868E-2  -2.607659794330650E-3  -1.412778353938778E-1   2.657212130725384E-2  -1.407594988757507E-1   2.692419476807118E-2   6.150040030479431E-2   1.062246508835945E-1  
